
**** 06/15/22 19:20:39 *********** Evaluation PSpice (Nov 1999) **************

 * D:\2nd semester\CIRCUIT AND SYSTEMS 1 LAB\lab 9 & 10\Schematic1.sch


 ****     CIRCUIT DESCRIPTION


******************************************************************************




* Schematics Version 9.1 - Web Update 1
* Wed Jun 15 19:20:36 2022



** Analysis setup **
.OP 


* From [PSPICE NETLIST] section of pspiceev.ini:
.lib "nom.lib"

.INC "Schematic1.net"

**** INCLUDING Schematic1.net ****
* Schematics Netlist *



V_V12         $N_0001 0 5.676
R_R30         $N_0002 0  25  
R_R29         $N_0001 $N_0002  3.5675  
I_I1         0 $N_0003 DC 1.591030  
R_R32         0 $N_0003  25  
R_R31         0 $N_0003  3.5675  

**** RESUMING Schematic1.cir ****
.INC "Schematic1.als"



**** INCLUDING Schematic1.als ****
* Schematics Aliases *

.ALIASES
V_V12           V12(+=$N_0001 -=0 )
R_R30           R30(1=$N_0002 2=0 )
R_R29           R29(1=$N_0001 2=$N_0002 )
I_I1            I1(+=0 -=$N_0003 )
R_R32           R32(1=0 2=$N_0003 )
R_R31           R31(1=0 2=$N_0003 )
.ENDALIASES


**** RESUMING Schematic1.cir ****
.probe


.END

**** 06/15/22 19:20:39 *********** Evaluation PSpice (Nov 1999) **************

 * D:\2nd semester\CIRCUIT AND SYSTEMS 1 LAB\lab 9 & 10\Schematic1.sch


 ****     SMALL SIGNAL BIAS SOLUTION       TEMPERATURE =   27.000 DEG C


******************************************************************************



 NODE   VOLTAGE     NODE   VOLTAGE     NODE   VOLTAGE     NODE   VOLTAGE


($N_0001)    5.6760                   ($N_0002)    4.9672                       

($N_0003)    4.9672                   




    VOLTAGE SOURCE CURRENTS
    NAME         CURRENT

    V_V12       -1.987E-01

    TOTAL POWER DISSIPATION   1.13E+00  WATTS


**** 06/15/22 19:20:39 *********** Evaluation PSpice (Nov 1999) **************

 * D:\2nd semester\CIRCUIT AND SYSTEMS 1 LAB\lab 9 & 10\Schematic1.sch


 ****     OPERATING POINT INFORMATION      TEMPERATURE =   27.000 DEG C


******************************************************************************





          JOB CONCLUDED

          TOTAL JOB TIME            0.00
