
**** 07/02/22 17:26:34 *********** Evaluation PSpice (Nov 1999) **************

 * D:\2nd semester\CIRCUIT AND SYSTEMS 1 LAB\lab 12\Schematic1.sch


 ****     CIRCUIT DESCRIPTION


******************************************************************************




* Schematics Version 9.1 - Web Update 1
* Sat Jul 02 17:26:31 2022



** Analysis setup **
.OP 


* From [PSPICE NETLIST] section of pspiceev.ini:
.lib "nom.lib"

.INC "Schematic1.net"

**** INCLUDING Schematic1.net ****
* Schematics Netlist *



V_V1         $N_0001 0 10V
R_R5         $N_0003 $N_0002  5  
R_R1         $N_0002 $N_0001  2  
R_R4         0 $N_0002  8  
R_R2         $N_0001 $N_0003  10  
R_R3         $N_0003 0  2  

**** RESUMING Schematic1.cir ****
.INC "Schematic1.als"



**** INCLUDING Schematic1.als ****
* Schematics Aliases *

.ALIASES
V_V1            V1(+=$N_0001 -=0 )
R_R5            R5(1=$N_0003 2=$N_0002 )
R_R1            R1(1=$N_0002 2=$N_0001 )
R_R4            R4(1=0 2=$N_0002 )
R_R2            R2(1=$N_0001 2=$N_0003 )
R_R3            R3(1=$N_0003 2=0 )
.ENDALIASES


**** RESUMING Schematic1.cir ****
.probe


.END

**** 07/02/22 17:26:34 *********** Evaluation PSpice (Nov 1999) **************

 * D:\2nd semester\CIRCUIT AND SYSTEMS 1 LAB\lab 12\Schematic1.sch


 ****     SMALL SIGNAL BIAS SOLUTION       TEMPERATURE =   27.000 DEG C


******************************************************************************



 NODE   VOLTAGE     NODE   VOLTAGE     NODE   VOLTAGE     NODE   VOLTAGE


($N_0001)   10.0000                   ($N_0002)    6.7742                       

($N_0003)    2.9435                   




    VOLTAGE SOURCE CURRENTS
    NAME         CURRENT

    V_V1        -2.319E+00

    TOTAL POWER DISSIPATION   2.32E+01  WATTS


**** 07/02/22 17:26:34 *********** Evaluation PSpice (Nov 1999) **************

 * D:\2nd semester\CIRCUIT AND SYSTEMS 1 LAB\lab 12\Schematic1.sch


 ****     OPERATING POINT INFORMATION      TEMPERATURE =   27.000 DEG C


******************************************************************************





          JOB CONCLUDED

          TOTAL JOB TIME             .02
