
**** 05/26/22 15:59:23 *********** Evaluation PSpice (Nov 1999) **************

 * C:\Users\SADEEQ KACHOO\Desktop\lab 7\lab 7.sch


 ****     CIRCUIT DESCRIPTION


******************************************************************************




* Schematics Version 9.1 - Web Update 1
* Thu May 26 13:03:35 2022



** Analysis setup **
.OP 


* From [PSPICE NETLIST] section of pspiceev.ini:
.lib "nom.lib"

.INC "lab 7.net"

**** INCLUDING "lab 7.net" ****
* Schematics Netlist *



R_R6         $N_0002 $N_0001  2  
R_R10         $N_0003 $N_0002  1  
R_R12         $N_0005 $N_0004  2  
R_R9         $N_0006 $N_0005  3  
R_R7         $N_0003 $N_0006  4  
V_V1         $N_0003 0 15V
V_V2         $N_0005 0 10V
R_R8         $N_0001 $N_0004  1  
R_R11         $N_0006 $N_0001  2  
R_R13         0 $N_0006  8  

**** RESUMING "lab 7.cir" ****
.INC "lab 7.als"



**** INCLUDING "lab 7.als" ****
* Schematics Aliases *

.ALIASES
R_R6            R6(1=$N_0002 2=$N_0001 )
R_R10           R10(1=$N_0003 2=$N_0002 )
R_R12           R12(1=$N_0005 2=$N_0004 )
R_R9            R9(1=$N_0006 2=$N_0005 )
R_R7            R7(1=$N_0003 2=$N_0006 )
V_V1            V1(+=$N_0003 -=0 )
V_V2            V2(+=$N_0005 -=0 )
R_R8            R8(1=$N_0001 2=$N_0004 )
R_R11           R11(1=$N_0006 2=$N_0001 )
R_R13           R13(1=0 2=$N_0006 )
.ENDALIASES


**** RESUMING "lab 7.cir" ****
.probe


.END

**** 05/26/22 15:59:23 *********** Evaluation PSpice (Nov 1999) **************

 * C:\Users\SADEEQ KACHOO\Desktop\lab 7\lab 7.sch


 ****     SMALL SIGNAL BIAS SOLUTION       TEMPERATURE =   27.000 DEG C


******************************************************************************



 NODE   VOLTAGE     NODE   VOLTAGE     NODE   VOLTAGE     NODE   VOLTAGE


($N_0001)   11.7370                   ($N_0002)   13.9120                       

($N_0003)   15.0000                   ($N_0004)   11.1580                       

($N_0005)   10.0000                   ($N_0006)   10.7190                   




    VOLTAGE SOURCE CURRENTS
    NAME         CURRENT

    V_V1        -2.158E+00
    V_V2         8.184E-01

    TOTAL POWER DISSIPATION   2.42E+01  WATTS


**** 05/26/22 15:59:23 *********** Evaluation PSpice (Nov 1999) **************

 * C:\Users\SADEEQ KACHOO\Desktop\lab 7\lab 7.sch


 ****     OPERATING POINT INFORMATION      TEMPERATURE =   27.000 DEG C


******************************************************************************





          JOB CONCLUDED

          TOTAL JOB TIME            0.00
